
T2120 000:007 SEGGER J-Link V6.30d Log File (0001ms, 0008ms total)
T2120 000:007 DLL Compiled: Feb 16 2018 13:30:32 (0001ms, 0008ms total)
T2120 000:007 Logging started @ 2024-06-12 17:23 (0001ms, 0008ms total)
T2120 000:008 JLINK_SetWarnOutHandler(...) (0000ms, 0008ms total)
T2120 000:008 JLINK_OpenEx(...)
Firmware: J-Link V9 compiled May  7 2021 16:26:12
Hardware: V9.60
S/N: 69604706
Feature(s): GDB, RDI, FlashBP, FlashDL, JFlash
TELNET listener socket opened on port 19021WEBSRV 
Starting webserver (0036ms, 0044ms total)
T2120 000:008 WEBSRV Webserver running on local port 19080 (0036ms, 0044ms total)
T2120 000:008   returns O.K. (0036ms, 0044ms total)
T2120 000:044 JLINK_GetEmuCaps()  returns 0xB9FF7BBF (0000ms, 0044ms total)
T2120 000:044 JLINK_TIF_GetAvailable(...) (0001ms, 0045ms total)
T2120 000:045 JLINK_SetErrorOutHandler(...) (0000ms, 0045ms total)
T2120 000:045 JLINK_ExecCommand("ProjectFile = "C:\Users\vboxuser\Desktop\HC32F005\HC32F005-Exemple\From-the-start\HC32F005\HC32F005-Exemple\example\0-TEST-0\MDK\JLinkSettings.ini"", ...). C:\Program Files (x86)\SEGGER\JLink_V630d\JLinkDevices.xml evaluated successfully.Device "CORTEX-M0+" selected.  returns 0x00 (0201ms, 0246ms total)
T2120 000:247 JLINK_ExecCommand("Device = HC32F005C6PA", ...). Device "CORTEX-M0+" selected.  returns 0x00 (0001ms, 0247ms total)
T2120 000:248 JLINK_ExecCommand("DisableConnectionTimeout", ...).   returns 0x01 (0000ms, 0247ms total)
T2120 000:248 JLINK_GetHardwareVersion()  returns 0x17700 (0000ms, 0247ms total)
T2120 000:248 JLINK_GetDLLVersion()  returns 63004 (0000ms, 0247ms total)
T2120 000:248 JLINK_GetFirmwareString(...) (0000ms, 0247ms total)
T2120 000:248 JLINK_GetDLLVersion()  returns 63004 (0000ms, 0247ms total)
T2120 000:248 JLINK_GetCompileDateTime() (0000ms, 0247ms total)
T2120 000:249 JLINK_GetFirmwareString(...) (0000ms, 0247ms total)
T2120 000:249 JLINK_GetHardwareVersion()  returns 0x17700 (0000ms, 0247ms total)
T2120 000:249 JLINK_TIF_Select(JLINKARM_TIF_SWD)  returns 0x00 (0003ms, 0250ms total)
T2120 000:252 JLINK_SetSpeed(5000) (0001ms, 0251ms total)
T2120 000:253 JLINK_GetId() >0x10B TIF>Found SW-DP with ID 0x0BC11477 >0x0D TIF> >0x28 TIF> >0x0D TIF> >0x28 TIF> >0x0D TIF> >0x28 TIF> >0x0D TIF> >0x28 TIF> >0x0D TIF> >0x21 TIF> >0x0D TIF> >0x28 TIF>Scanning AP map to find all available APs >0x0D TIF> >0x28 TIF> >0x0D TIF> >0x21 TIF> >0x0D TIF> >0x21 TIF> >0x0D TIF> >0x28 TIF> >0x0D TIF> >0x21 TIF> >0x0D TIF> >0x21 TIF>AP[1]: Stopped AP scan as end of AP map has been reachedAP[0]: AHB-AP (IDR: 0x04770031)Iterating through AP map to find AHB-AP to use
 >0x42 TIF> >0x28 TIF> >0x0D TIF> >0x28 TIF> >0x0D TIF> >0x21 TIF> >0x0D TIF> >0x21 TIF> >0x42 TIF> >0x28 TIF> >0x0D TIF> >0x28 TIF> >0x0D TIF> >0x28 TIF> >0x0D TIF> >0x21 TIF> >0x0D TIF> >0x21 TIF>AP[0]: Core foundAP[0]: AHB-AP ROM base: 0xE00FF000 >0x0D TIF> >0x28 TIF> >0x0D TIF> >0x28 TIF> >0x0D TIF> >0x28 TIF> >0x0D TIF> >0x21 TIF> >0x0D TIF> >0x21 TIF>CPUID register: 0x410CC601. Implementer code: 0x41 (ARM)Found Cortex-M0 r0p1, Little endian. -- CPU_ReadMem(4 bytes @ 0xE000EDF0)
 -- CPU_WriteMem(4 bytes @ 0xE000EDF0) -- CPU_ReadMem(4 bytes @ 0xE0002000)FPUnit: 4 code (BP) slots and 0 literal slots -- CPU_ReadMem(4 bytes @ 0xE000EDFC) -- CPU_WriteMem(4 bytes @ 0xE000EDFC) -- CPU_ReadMem(4 bytes @ 0xE0001000) -- CPU_WriteMem(4 bytes @ 0xE0001000)CoreSight components:ROMTbl[0] @ E00FF000 -- CPU_ReadMem(16 bytes @ 0xE00FF000) -- CPU_ReadMem(16 bytes @ 0xE000EFF0) -- CPU_ReadMem(16 bytes @ 0xE000EFE0)ROMTbl[0][0]: E000E000, CID: B105E00D, PID: 000BB008 SCS
 -- CPU_ReadMem(16 bytes @ 0xE0001FF0) -- CPU_ReadMem(16 bytes @ 0xE0001FE0)ROMTbl[0][1]: E0001000, CID: B105E00D, PID: 000BB00A DWT -- CPU_ReadMem(16 bytes @ 0xE0002FF0) -- CPU_ReadMem(16 bytes @ 0xE0002FE0)ROMTbl[0][2]: E0002000, CID: B105E00D, PID: 000BB00B FPB >0x0D TIF> >0x21 TIF>  returns 0x0BC11477 (0168ms, 0419ms total)
T2120 000:421 JLINK_GetDLLVersion()  returns 63004 (0000ms, 0419ms total)
T2120 000:421 JLINK_CORE_GetFound()  returns 0x60000FF (0000ms, 0419ms total)
T2120 000:421 JLINK_GetDebugInfo(0x100 = JLINKARM_ROM_TABLE_ADDR_INDEX) -- Value=0xE00FF000  returns 0x00 (0000ms, 0419ms total)
T2120 000:421 JLINK_GetDebugInfo(0x100 = JLINKARM_ROM_TABLE_ADDR_INDEX) -- Value=0xE00FF000  returns 0x00 (0000ms, 0419ms total)
T2120 000:421 JLINK_GetDebugInfo(0x101 = JLINKARM_DEBUG_INFO_ETM_ADDR_INDEX) -- Value=0x00000000  returns 0x00 (0000ms, 0419ms total)
T2120 000:421 JLINK_ReadMemEx(0xE0041FF0, 0x0010 Bytes, ..., Flags = 0x02000004) -- CPU_ReadMem(16 bytes @ 0xE0041FF0) - Data: 00 00 00 00 00 00 00 00 00 00 00 00 00 00 00 00  returns 0x10 (0001ms, 0420ms total)
T2120 000:422 JLINK_GetDebugInfo(0x102 = JLINKARM_DEBUG_INFO_MTB_ADDR_INDEX) -- Value=0x00000000  returns 0x00 (0000ms, 0420ms total)
T2120 000:422 JLINK_GetDebugInfo(0x103 = JLINKARM_DEBUG_INFO_TPIU_ADDR_INDEX) -- Value=0x00000000  returns 0x00 (0000ms, 0420ms total)
T2120 000:422 JLINK_ReadMemEx(0xE0040FF0, 0x0010 Bytes, ..., Flags = 0x02000004) -- CPU_ReadMem(16 bytes @ 0xE0040FF0) - Data: 00 00 00 00 00 00 00 00 00 00 00 00 00 00 00 00  returns 0x10 (0000ms, 0420ms total)
T2120 000:422 JLINK_GetDebugInfo(0x104 = JLINKARM_DEBUG_INFO_ITM_ADDR_INDEX) -- Value=0xE0000000  returns 0x00 (0000ms, 0420ms total)
T2120 000:422 JLINK_GetDebugInfo(0x105 = JLINKARM_DEBUG_INFO_DWT_ADDR_INDEX) -- Value=0xE0001000  returns 0x00 (0000ms, 0420ms total)
T2120 000:422 JLINK_GetDebugInfo(0x106 = JLINKARM_DEBUG_INFO_FPB_ADDR_INDEX) -- Value=0xE0002000  returns 0x00 (0000ms, 0420ms total)
T2120 000:422 JLINK_GetDebugInfo(0x107 = JLINKARM_DEBUG_INFO_NVIC_ADDR_INDEX) -- Value=0xE000E000  returns 0x00 (0000ms, 0420ms total)
T2120 000:422 JLINK_GetDebugInfo(0x10C = JLINKARM_DEBUG_INFO_DBG_ADDR_INDEX) -- Value=0xE000EDF0  returns 0x00 (0000ms, 0420ms total)
T2120 000:422 JLINK_GetDebugInfo(0x01 = Unknown) -- Value=0x00000000  returns 0x00 (0000ms, 0420ms total)
T2120 000:422 JLINK_ReadMemU32(0xE000ED00, 0x0001 Items, ...) -- CPU_ReadMem(4 bytes @ 0xE000ED00) - Data: 01 C6 0C 41  returns 0x01 (0000ms, 0420ms total)
T2120 000:422 JLINK_GetDebugInfo(0x10F = JLINKARM_DEBUG_INFO_HAS_CORTEX_M_SECURITY_EXT_INDEX) -- Value=0x00000000  returns 0x00 (0000ms, 0420ms total)
T2120 000:422 JLINK_SetResetType(JLINKARM_CM3_RESET_TYPE_NORMAL)  returns JLINKARM_CM3_RESET_TYPE_NORMAL (0000ms, 0420ms total)
T2120 000:422 JLINK_Reset() -- CPU is running -- CPU_WriteMem(4 bytes @ 0xE000EDF0) -- CPU is running -- CPU_WriteMem(4 bytes @ 0xE000EDFC)Reset: Halt core after reset via DEMCR.VC_CORERESET. >0x35 TIF>Reset: Reset device via AIRCR.SYSRESETREQ. -- CPU is running -- CPU_WriteMem(4 bytes @ 0xE000ED0C) >0x0D TIF> >0x28 TIF> -- CPU_ReadMem(4 bytes @ 0xE000EDF0) -- CPU_ReadMem(4 bytes @ 0xE000EDF0) -- CPU is running -- CPU_WriteMem(4 bytes @ 0xE000EDF0) -- CPU is running -- CPU_WriteMem(4 bytes @ 0xE000EDFC)
 -- CPU_ReadMem(4 bytes @ 0xE000EDF0) -- CPU_WriteMem(4 bytes @ 0xE0002000) -- CPU_ReadMem(4 bytes @ 0xE000EDFC) -- CPU_ReadMem(4 bytes @ 0xE0001000) -- CPU_WriteMem(4 bytes @ 0xE0001000) (0075ms, 0495ms total)
T2120 000:497 JLINK_ReadReg(R15 (PC))  returns 0x00000164 (0000ms, 0495ms total)
T2120 000:497 JLINK_ReadReg(XPSR)  returns 0x41000000 (0000ms, 0495ms total)
T2120 000:497 JLINK_Halt()  returns 0x00 (0000ms, 0495ms total)
T2120 000:497 JLINK_ReadMemU32(0xE000EDF0, 0x0001 Items, ...) -- CPU_ReadMem(4 bytes @ 0xE000EDF0) - Data: 03 00 03 00  returns 0x01 (0001ms, 0496ms total)
T2120 000:498 JLINK_WriteU32(0xE000EDF0, 0xA05F0003) -- CPU_WriteMem(4 bytes @ 0xE000EDF0)  returns 0x00 (0000ms, 0496ms total)
T2120 000:498 JLINK_WriteU32(0xE000EDFC, 0x01000000) -- CPU_WriteMem(4 bytes @ 0xE000EDFC)  returns 0x00 (0001ms, 0497ms total)
T2120 000:499 JLINK_GetHWStatus(...)  returns 0x00 (0000ms, 0497ms total)
T2120 000:499 JLINK_GetNumBPUnits(Type = 0xFFFFFF00)  returns 0x04 (0000ms, 0497ms total)
T2120 000:499 JLINK_GetNumBPUnits(Type = 0xF0)  returns 0x2000 (0000ms, 0497ms total)
T2120 000:499 JLINK_GetNumWPUnits()  returns 0x02 (0000ms, 0497ms total)
T2120 000:499 JLINK_GetSpeed()  returns 0xFA0 (0000ms, 0497ms total)
T2120 000:499 JLINK_ReadMemU32(0xE000E004, 0x0001 Items, ...) -- CPU_ReadMem(4 bytes @ 0xE000E004) - Data: 00 00 00 00  returns 0x01 (0002ms, 0499ms total)
T2120 000:501 JLINK_ReadReg(R15 (PC))  returns 0x00000164 (0000ms, 0499ms total)
T2120 000:501 JLINK_ReadReg(XPSR)  returns 0x41000000 (0000ms, 0499ms total)
T2120 000:577 JLINK_SetResetType(JLINKARM_CM3_RESET_TYPE_NORMAL)  returns JLINKARM_CM3_RESET_TYPE_NORMAL (0000ms, 0499ms total)
T2120 000:577 JLINK_Reset() -- CPU_WriteMem(4 bytes @ 0xE000EDF0) -- CPU_WriteMem(4 bytes @ 0xE000EDFC)Reset: Halt core after reset via DEMCR.VC_CORERESET. >0x35 TIF>Reset: Reset device via AIRCR.SYSRESETREQ. -- CPU_WriteMem(4 bytes @ 0xE000ED0C) >0x0D TIF> >0x28 TIF> -- CPU_ReadMem(4 bytes @ 0xE000EDF0) -- CPU_ReadMem(4 bytes @ 0xE000EDF0) -- CPU_WriteMem(4 bytes @ 0xE000EDF0) -- CPU_WriteMem(4 bytes @ 0xE000EDFC) -- CPU_ReadMem(4 bytes @ 0xE000EDF0) -- CPU_WriteMem(4 bytes @ 0xE0002000)
 -- CPU_ReadMem(4 bytes @ 0xE000EDFC) -- CPU_ReadMem(4 bytes @ 0xE0001000) -- CPU_WriteMem(4 bytes @ 0xE0001000) (0076ms, 0575ms total)
T2120 000:653 JLINK_ReadReg(R15 (PC))  returns 0x00000164 (0000ms, 0575ms total)
T2120 000:653 JLINK_ReadReg(XPSR)  returns 0x41000000 (0000ms, 0575ms total)
T2120 001:029 JLINK_ReadMemEx(0x40000C00, 0x0010 Bytes, ..., Flags = 0x02000004) -- CPU_ReadMem(16 bytes @ 0x40000C00) - Data: 00 00 00 00 00 00 00 00 00 00 00 00 08 00 00 00  returns 0x10 (0001ms, 0576ms total)
T2120 001:030 JLINK_ReadMemEx(0x40000C10, 0x0004 Bytes, ..., Flags = 0x02000004) -- CPU_ReadMem(4 bytes @ 0x40000C10) - Data: 00 00 00 00  returns 0x04 (0002ms, 0578ms total)
T2120 001:606 JLINK_ReadMemEx(0x40002000, 0x0014 Bytes, ..., Flags = 0x02000004) -- CPU_ReadMem(20 bytes @ 0x40002000) - Data: 01 00 00 00 08 00 00 00 00 00 00 00 26 09 00 00 ...  returns 0x14 (0001ms, 0579ms total)
T2120 001:607 JLINK_ReadMemEx(0x40002014, 0x0004 Bytes, ..., Flags = 0x02000004) -- CPU_ReadMem(4 bytes @ 0x40002014) - Data: 3F 03 00 00  returns 0x04 (0001ms, 0580ms total)
T2120 001:608 JLINK_ReadMemEx(0x40002020, 0x0004 Bytes, ..., Flags = 0x02000004) -- CPU_ReadMem(4 bytes @ 0x40002020) - Data: 00 00 80 C0  returns 0x04 (0001ms, 0581ms total)
T2120 001:609 JLINK_ReadMemEx(0x40002034, 0x0004 Bytes, ..., Flags = 0x02000004) -- CPU_ReadMem(4 bytes @ 0x40002034) - Data: 47 01 00 01  returns 0x04 (0001ms, 0582ms total)
T2120 001:610 JLINK_ReadMemEx(0x40002038, 0x0004 Bytes, ..., Flags = 0x02000004) -- CPU_ReadMem(4 bytes @ 0x40002038) - Data: FF 07 00 00  returns 0x04 (0001ms, 0583ms total)
T2120 001:759 JLINK_ReadMemEx(0x40000000, 0x0014 Bytes, ..., Flags = 0x02000004) -- CPU_ReadMem(20 bytes @ 0x40000000) - Data: 00 00 00 00 00 00 00 00 00 00 00 00 00 00 00 00 ...  returns 0x14 (0000ms, 0583ms total)
T2120 001:759 JLINK_ReadMemEx(0x40000014, 0x0004 Bytes, ..., Flags = 0x02000004) -- CPU_ReadMem(4 bytes @ 0x40000014) - Data: 07 00 00 00  returns 0x04 (0001ms, 0584ms total)
T2120 004:012 JLINK_ReadMemEx(0x00000164, 0x003C Bytes, ..., Flags = 0x02000000) -- CPU_ReadMem(60 bytes @ 0x00000164) - Data: 0C 48 0D 4A 00 21 00 A1 81 42 00 D9 02 44 0B 48 ...  returns 0x3C (0001ms, 0585ms total)
T2120 004:013 JLINK_ReadMemEx(0x00000164, 0x0002 Bytes, ..., Flags = 0x02000000) -- CPU_ReadMem(2 bytes @ 0x00000164) - Data: 0C 48  returns 0x02 (0001ms, 0586ms total)
T2120 004:014 JLINK_ReadMemEx(0x00000166, 0x0002 Bytes, ..., Flags = 0x02000000) -- CPU_ReadMem(2 bytes @ 0x00000166) - Data: 0D 4A  returns 0x02 (0000ms, 0586ms total)
T2120 004:014 JLINK_ReadMemEx(0x00000166, 0x0002 Bytes, ..., Flags = 0x02000000) -- CPU_ReadMem(2 bytes @ 0x00000166) - Data: 0D 4A  returns 0x02 (0001ms, 0587ms total)
T2120 004:015 JLINK_ReadMemEx(0x00000168, 0x003C Bytes, ..., Flags = 0x02000000) -- CPU_ReadMem(60 bytes @ 0x00000168) - Data: 00 21 00 A1 81 42 00 D9 02 44 0B 48 02 60 0B 48 ...  returns 0x3C (0001ms, 0588ms total)
T2120 004:016 JLINK_ReadMemEx(0x00000168, 0x0002 Bytes, ..., Flags = 0x02000000) -- CPU_ReadMem(2 bytes @ 0x00000168) - Data: 00 21  returns 0x02 (0001ms, 0589ms total)
T2448 005:308 JLINK_ReadMemEx(0x00000164, 0x0002 Bytes, ..., Flags = 0x02000000) -- CPU_ReadMem(2 bytes @ 0x00000164) - Data: 0C 48  returns 0x02 (0001ms, 0590ms total)
T2448 005:309 JLINK_SetBPEx(Addr = 0x0000174C, Type = 0xFFFFFFF2)  returns 0x00000001 (0000ms, 0590ms total)
T2448 005:309 JLINK_Go() -- CPU_WriteMem(4 bytes @ 0xE0002000) -- CPU_ReadMem(4 bytes @ 0xE0001000) -- CPU_WriteMem(4 bytes @ 0xE0001000) -- CPU_WriteMem(4 bytes @ 0xE0002008) -- CPU_WriteMem(4 bytes @ 0xE000200C) -- CPU_WriteMem(4 bytes @ 0xE0002010) -- CPU_WriteMem(4 bytes @ 0xE0002014) -- CPU_WriteMem(4 bytes @ 0xE0001004) (0007ms, 0597ms total)
T2448 005:418 JLINK_IsHalted()  returns TRUE (0005ms, 0602ms total)
T2448 005:423 JLINK_Halt()  returns 0x00 (0000ms, 0597ms total)
T2448 005:423 JLINK_IsHalted()  returns TRUE (0000ms, 0597ms total)
T2448 005:423 JLINK_IsHalted()  returns TRUE (0000ms, 0597ms total)
T2448 005:423 JLINK_IsHalted()  returns TRUE (0000ms, 0597ms total)
T2448 005:423 JLINK_ReadReg(R15 (PC))  returns 0x0000174C (0000ms, 0597ms total)
T2448 005:423 JLINK_ReadReg(XPSR)  returns 0x01000000 (0000ms, 0597ms total)
T2448 005:423 JLINK_ClrBPEx(BPHandle = 0x00000001)  returns 0x00 (0000ms, 0597ms total)
T2448 005:423 JLINK_ReadMemU32(0xE000ED30, 0x0001 Items, ...) -- CPU_ReadMem(4 bytes @ 0xE000ED30) - Data: 02 00 00 00  returns 0x01 (0001ms, 0598ms total)
T2448 005:424 JLINK_ReadMemU32(0xE0001028, 0x0001 Items, ...) -- CPU_ReadMem(4 bytes @ 0xE0001028) - Data: 00 00 00 00  returns 0x01 (0002ms, 0600ms total)
T2448 005:426 JLINK_ReadMemU32(0xE0001038, 0x0001 Items, ...) -- CPU_ReadMem(4 bytes @ 0xE0001038) - Data: 00 00 00 00  returns 0x01 (0001ms, 0601ms total)
T2448 005:427 JLINK_ReadReg(R0)  returns 0x200001B8 (0000ms, 0601ms total)
T2448 005:427 JLINK_ReadReg(R1)  returns 0x200001B8 (0000ms, 0601ms total)
T2448 005:427 JLINK_ReadReg(R2)  returns 0x200001B8 (0000ms, 0601ms total)
T2448 005:427 JLINK_ReadReg(R3)  returns 0x200001B8 (0000ms, 0601ms total)
T2448 005:427 JLINK_ReadReg(R4)  returns 0x00001780 (0000ms, 0601ms total)
T2448 005:427 JLINK_ReadReg(R5)  returns 0x20000158 (0000ms, 0601ms total)
T2448 005:427 JLINK_ReadReg(R6)  returns 0x00000000 (0000ms, 0601ms total)
T2448 005:427 JLINK_ReadReg(R7)  returns 0x00000000 (0000ms, 0601ms total)
T2448 005:427 JLINK_ReadReg(R8)  returns 0x00000000 (0000ms, 0601ms total)
T2448 005:427 JLINK_ReadReg(R9)  returns 0x200001DC (0000ms, 0601ms total)
T2448 005:427 JLINK_ReadReg(R10)  returns 0x00001780 (0000ms, 0601ms total)
T2448 005:427 JLINK_ReadReg(R11)  returns 0x00001780 (0000ms, 0601ms total)
T2448 005:427 JLINK_ReadReg(R12)  returns 0x00000000 (0000ms, 0601ms total)
T2448 005:427 JLINK_ReadReg(R13 (SP))  returns 0x200003B8 (0000ms, 0601ms total)
T2448 005:427 JLINK_ReadReg(R14)  returns 0x00000153 (0000ms, 0601ms total)
T2448 005:427 JLINK_ReadReg(R15 (PC))  returns 0x0000174C (0000ms, 0601ms total)
T2448 005:427 JLINK_ReadReg(XPSR)  returns 0x01000000 (0000ms, 0601ms total)
T2448 005:427 JLINK_ReadReg(MSP)  returns 0x200003B8 (0000ms, 0601ms total)
T2448 005:427 JLINK_ReadReg(PSP)  returns 0x20001000 (0000ms, 0601ms total)
T2448 005:427 JLINK_ReadReg(CFBP)  returns 0x00000000 (0000ms, 0601ms total)
T2120 005:432 JLINK_ReadMemEx(0x40002000, 0x0014 Bytes, ..., Flags = 0x02000004) -- CPU_ReadMem(20 bytes @ 0x40002000) - Data: 01 00 00 00 08 00 00 00 00 00 00 00 4C 09 00 00 ...  returns 0x14 (0000ms, 0601ms total)
T2120 005:432 JLINK_ReadMemEx(0x40002014, 0x0004 Bytes, ..., Flags = 0x02000004) -- CPU_ReadMem(4 bytes @ 0x40002014) - Data: 3F 03 00 00  returns 0x04 (0002ms, 0603ms total)
T2120 005:434 JLINK_ReadMemEx(0x40002020, 0x0004 Bytes, ..., Flags = 0x02000004) -- CPU_ReadMem(4 bytes @ 0x40002020) - Data: 00 00 80 C1  returns 0x04 (0000ms, 0603ms total)
T2120 005:434 JLINK_ReadMemEx(0x40002034, 0x0004 Bytes, ..., Flags = 0x02000004) -- CPU_ReadMem(4 bytes @ 0x40002034) - Data: 47 01 00 0B  returns 0x04 (0000ms, 0603ms total)
T2120 005:434 JLINK_ReadMemEx(0x40002038, 0x0004 Bytes, ..., Flags = 0x02000004) -- CPU_ReadMem(4 bytes @ 0x40002038) - Data: FF 07 00 00  returns 0x04 (0002ms, 0605ms total)
T2120 005:436 JLINK_ReadMemEx(0x40000C00, 0x0010 Bytes, ..., Flags = 0x02000004) -- CPU_ReadMem(16 bytes @ 0x40000C00) - Data: 00 00 00 00 00 00 00 00 00 00 00 00 08 00 00 00  returns 0x10 (0001ms, 0606ms total)
T2120 005:437 JLINK_ReadMemEx(0x40000C10, 0x0004 Bytes, ..., Flags = 0x02000004) -- CPU_ReadMem(4 bytes @ 0x40000C10) - Data: 00 00 00 00  returns 0x04 (0001ms, 0607ms total)
T2120 005:438 JLINK_ReadMemEx(0x40000000, 0x0014 Bytes, ..., Flags = 0x02000004) -- CPU_ReadMem(20 bytes @ 0x40000000) - Data: 00 00 00 00 00 00 00 00 00 00 00 00 00 00 00 00 ...  returns 0x14 (0001ms, 0608ms total)
T2120 005:439 JLINK_ReadMemEx(0x40000014, 0x0004 Bytes, ..., Flags = 0x02000004) -- CPU_ReadMem(4 bytes @ 0x40000014) - Data: 07 00 00 00  returns 0x04 (0001ms, 0609ms total)
T2448 018:796 JLINK_ReadMemEx(0x0000174C, 0x0002 Bytes, ..., Flags = 0x02000000) -- CPU_ReadMem(64 bytes @ 0x00001740) -- Updating DA cache (64 bytes @ 0x00001740) -- Read from DA cache (2 bytes @ 0x0000174C) - Data: 4B 20  returns 0x02 (0001ms, 0610ms total)
T2448 018:797 JLINK_Go() -- CPU_ReadMem(4 bytes @ 0xE0001000) -- CPU_WriteMem(4 bytes @ 0xE0001000) -- CPU_WriteMem(4 bytes @ 0xE0002008) (0006ms, 0616ms total)
T2448 018:903 JLINK_IsHalted()  returns FALSE (0000ms, 0616ms total)
T2448 019:005 JLINK_IsHalted()  returns FALSE (0002ms, 0618ms total)
T2448 019:107 JLINK_IsHalted()  returns FALSE (0001ms, 0617ms total)
T2448 019:210 JLINK_IsHalted()  returns FALSE (0000ms, 0616ms total)
T2448 019:312 JLINK_IsHalted()  returns FALSE (0001ms, 0617ms total)
T2120 019:417 JLINK_ReadMemEx(0x40002000, 0x0014 Bytes, ..., Flags = 0x02000004) -- CPU_ReadMem(20 bytes @ 0x40002000) - Data: 01 00 00 00 08 00 00 00 00 00 00 00 4C 09 00 00 ...  returns 0x14 (0001ms, 0617ms total)
T2120 019:418 JLINK_ReadMemEx(0x40002014, 0x0004 Bytes, ..., Flags = 0x02000004) -- CPU_ReadMem(4 bytes @ 0x40002014) - Data: 3F 03 00 00  returns 0x04 (0000ms, 0617ms total)
T2120 019:418 JLINK_ReadMemEx(0x40002020, 0x0004 Bytes, ..., Flags = 0x02000004) -- CPU_ReadMem(4 bytes @ 0x40002020) - Data: 01 01 80 D1  returns 0x04 (0000ms, 0617ms total)
T2120 019:418 JLINK_ReadMemEx(0x40002034, 0x0004 Bytes, ..., Flags = 0x02000004) -- CPU_ReadMem(4 bytes @ 0x40002034) - Data: 47 01 00 0B  returns 0x04 (0003ms, 0620ms total)
T2120 019:421 JLINK_ReadMemEx(0x40002038, 0x0004 Bytes, ..., Flags = 0x02000004) -- CPU_ReadMem(4 bytes @ 0x40002038) - Data: FF 07 00 00  returns 0x04 (0001ms, 0621ms total)
T2120 019:422 JLINK_ReadMemEx(0x40000C00, 0x0010 Bytes, ..., Flags = 0x02000004) -- CPU_ReadMem(16 bytes @ 0x40000C00) - Data: F3 FF 00 00 FB FF 00 00 F8 FF F3 FF 03 00 00 00  returns 0x10 (0000ms, 0621ms total)
T2120 019:422 JLINK_ReadMemEx(0x40000C10, 0x0004 Bytes, ..., Flags = 0x02000004) -- CPU_ReadMem(4 bytes @ 0x40000C10) - Data: 01 00 00 00  returns 0x04 (0002ms, 0623ms total)
T2120 019:424 JLINK_ReadMemEx(0x40000000, 0x0014 Bytes, ..., Flags = 0x02000004) -- CPU_ReadMem(20 bytes @ 0x40000000) - Data: 00 00 00 00 D1 00 00 00 00 00 00 00 00 00 00 00 ...  returns 0x14 (0001ms, 0624ms total)
T2120 019:425 JLINK_ReadMemEx(0x40000014, 0x0004 Bytes, ..., Flags = 0x02000004) -- CPU_ReadMem(4 bytes @ 0x40000014) - Data: 07 00 00 00  returns 0x04 (0001ms, 0625ms total)
T2448 019:429 JLINK_IsHalted()  returns FALSE (0001ms, 0626ms total)
T2448 019:532 JLINK_IsHalted()  returns FALSE (0000ms, 0625ms total)
T2448 019:633 JLINK_IsHalted()  returns FALSE (0000ms, 0625ms total)
T2448 019:735 JLINK_IsHalted()  returns FALSE (0001ms, 0626ms total)
T2448 019:836 JLINK_IsHalted()  returns FALSE (0001ms, 0626ms total)
T2120 019:943 JLINK_ReadMemEx(0x40002000, 0x0014 Bytes, ..., Flags = 0x02000004) -- CPU_ReadMem(20 bytes @ 0x40002000) - Data: 01 00 00 00 08 00 00 00 00 00 00 00 4C 09 00 00 ...  returns 0x14 (0001ms, 0626ms total)
T2120 019:944 JLINK_ReadMemEx(0x40002014, 0x0004 Bytes, ..., Flags = 0x02000004) -- CPU_ReadMem(4 bytes @ 0x40002014) - Data: 3F 03 00 00  returns 0x04 (0001ms, 0627ms total)
T2120 019:945 JLINK_ReadMemEx(0x40002020, 0x0004 Bytes, ..., Flags = 0x02000004) -- CPU_ReadMem(4 bytes @ 0x40002020) - Data: 01 01 80 D1  returns 0x04 (0002ms, 0629ms total)
T2120 019:947 JLINK_ReadMemEx(0x40002034, 0x0004 Bytes, ..., Flags = 0x02000004) -- CPU_ReadMem(4 bytes @ 0x40002034) - Data: 47 01 00 0B  returns 0x04 (0001ms, 0630ms total)
T2120 019:948 JLINK_ReadMemEx(0x40002038, 0x0004 Bytes, ..., Flags = 0x02000004) -- CPU_ReadMem(4 bytes @ 0x40002038) - Data: FF 07 00 00  returns 0x04 (0001ms, 0631ms total)
T2120 019:949 JLINK_ReadMemEx(0x40000C00, 0x0010 Bytes, ..., Flags = 0x02000004) -- CPU_ReadMem(16 bytes @ 0x40000C00) - Data: F3 FF 00 00 FE FF 00 00 FE FF F3 FF 03 00 00 00  returns 0x10 (0000ms, 0631ms total)
T2120 019:949 JLINK_ReadMemEx(0x40000C10, 0x0004 Bytes, ..., Flags = 0x02000004) -- CPU_ReadMem(4 bytes @ 0x40000C10) - Data: 01 00 00 00  returns 0x04 (0002ms, 0633ms total)
T2120 019:951 JLINK_ReadMemEx(0x40000000, 0x0014 Bytes, ..., Flags = 0x02000004) -- CPU_ReadMem(20 bytes @ 0x40000000) - Data: 00 00 00 00 D1 00 00 00 00 00 00 00 00 00 00 00 ...  returns 0x14 (0002ms, 0635ms total)
T2120 019:953 JLINK_ReadMemEx(0x40000014, 0x0004 Bytes, ..., Flags = 0x02000004) -- CPU_ReadMem(4 bytes @ 0x40000014) - Data: 07 00 00 00  returns 0x04 (0001ms, 0636ms total)
T2448 019:954 JLINK_IsHalted()  returns FALSE (0001ms, 0637ms total)
T2448 020:056 JLINK_IsHalted()  returns FALSE (0000ms, 0636ms total)
T2448 020:159 JLINK_IsHalted()  returns FALSE (0000ms, 0636ms total)
T2448 020:260 JLINK_IsHalted()  returns FALSE (0000ms, 0636ms total)
T2448 020:362 JLINK_IsHalted()  returns FALSE (0000ms, 0636ms total)
T2120 020:464 JLINK_ReadMemEx(0x40002000, 0x0014 Bytes, ..., Flags = 0x02000004) -- CPU_ReadMem(20 bytes @ 0x40002000) - Data: 01 00 00 00 08 00 00 00 00 00 00 00 4C 09 00 00 ...  returns 0x14 (0001ms, 0637ms total)
T2120 020:465 JLINK_ReadMemEx(0x40002014, 0x0004 Bytes, ..., Flags = 0x02000004) -- CPU_ReadMem(4 bytes @ 0x40002014) - Data: 3F 03 00 00  returns 0x04 (0000ms, 0637ms total)
T2120 020:465 JLINK_ReadMemEx(0x40002020, 0x0004 Bytes, ..., Flags = 0x02000004) -- CPU_ReadMem(4 bytes @ 0x40002020) - Data: 01 01 80 D1  returns 0x04 (0002ms, 0639ms total)
T2120 020:467 JLINK_ReadMemEx(0x40002034, 0x0004 Bytes, ..., Flags = 0x02000004) -- CPU_ReadMem(4 bytes @ 0x40002034) - Data: 47 01 00 0B  returns 0x04 (0002ms, 0641ms total)
T2120 020:469 JLINK_ReadMemEx(0x40002038, 0x0004 Bytes, ..., Flags = 0x02000004) -- CPU_ReadMem(4 bytes @ 0x40002038) - Data: FF 07 00 00  returns 0x04 (0001ms, 0642ms total)
T2120 020:470 JLINK_ReadMemEx(0x40000C00, 0x0010 Bytes, ..., Flags = 0x02000004) -- CPU_ReadMem(16 bytes @ 0x40000C00) - Data: F3 FF 00 00 F3 FF 00 00 FD FF F3 FF 03 00 00 00  returns 0x10 (0000ms, 0642ms total)
T2120 020:470 JLINK_ReadMemEx(0x40000C10, 0x0004 Bytes, ..., Flags = 0x02000004) -- CPU_ReadMem(4 bytes @ 0x40000C10) - Data: 01 00 00 00  returns 0x04 (0001ms, 0643ms total)
T2120 020:471 JLINK_ReadMemEx(0x40000000, 0x0014 Bytes, ..., Flags = 0x02000004) -- CPU_ReadMem(20 bytes @ 0x40000000) - Data: 00 00 00 00 D1 00 00 00 00 00 00 00 00 00 00 00 ...  returns 0x14 (0002ms, 0645ms total)
T2120 020:473 JLINK_ReadMemEx(0x40000014, 0x0004 Bytes, ..., Flags = 0x02000004) -- CPU_ReadMem(4 bytes @ 0x40000014) - Data: 07 00 00 00  returns 0x04 (0001ms, 0646ms total)
T2448 020:474 JLINK_IsHalted()  returns FALSE (0001ms, 0647ms total)
T2448 020:576 JLINK_IsHalted()  returns FALSE (0000ms, 0646ms total)
T2448 020:678 JLINK_IsHalted()  returns FALSE (0001ms, 0647ms total)
T2448 020:780 JLINK_IsHalted()  returns FALSE (0000ms, 0646ms total)
T2448 020:881 JLINK_IsHalted()  returns FALSE (0002ms, 0648ms total)
T2120 020:984 JLINK_ReadMemEx(0x40002000, 0x0014 Bytes, ..., Flags = 0x02000004) -- CPU_ReadMem(20 bytes @ 0x40002000) - Data: 01 00 00 00 08 00 00 00 00 00 00 00 4C 09 00 00 ...  returns 0x14 (0000ms, 0646ms total)
T2120 020:984 JLINK_ReadMemEx(0x40002014, 0x0004 Bytes, ..., Flags = 0x02000004) -- CPU_ReadMem(4 bytes @ 0x40002014) - Data: 3F 03 00 00  returns 0x04 (0001ms, 0647ms total)
T2120 020:985 JLINK_ReadMemEx(0x40002020, 0x0004 Bytes, ..., Flags = 0x02000004) -- CPU_ReadMem(4 bytes @ 0x40002020) - Data: 01 01 80 D1  returns 0x04 (0002ms, 0649ms total)
T2120 020:987 JLINK_ReadMemEx(0x40002034, 0x0004 Bytes, ..., Flags = 0x02000004) -- CPU_ReadMem(4 bytes @ 0x40002034) - Data: 47 01 00 0B  returns 0x04 (0000ms, 0649ms total)
T2120 020:987 JLINK_ReadMemEx(0x40002038, 0x0004 Bytes, ..., Flags = 0x02000004) -- CPU_ReadMem(4 bytes @ 0x40002038) - Data: FF 07 00 00  returns 0x04 (0001ms, 0650ms total)
T2120 020:988 JLINK_ReadMemEx(0x40000C00, 0x0010 Bytes, ..., Flags = 0x02000004) -- CPU_ReadMem(16 bytes @ 0x40000C00) - Data: F3 FF 00 00 F9 FF 00 00 F9 FF F3 FF 03 00 00 00  returns 0x10 (0001ms, 0651ms total)
T2120 020:989 JLINK_ReadMemEx(0x40000C10, 0x0004 Bytes, ..., Flags = 0x02000004) -- CPU_ReadMem(4 bytes @ 0x40000C10) - Data: 01 00 00 00  returns 0x04 (0001ms, 0652ms total)
T2120 020:991 JLINK_ReadMemEx(0x40000000, 0x0014 Bytes, ..., Flags = 0x02000004) -- CPU_ReadMem(20 bytes @ 0x40000000) - Data: 00 00 00 00 D1 00 00 00 00 00 00 00 00 00 00 00 ...  returns 0x14 (0001ms, 0653ms total)
T2120 020:992 JLINK_ReadMemEx(0x40000014, 0x0004 Bytes, ..., Flags = 0x02000004) -- CPU_ReadMem(4 bytes @ 0x40000014) - Data: 07 00 00 00  returns 0x04 (0000ms, 0653ms total)
T2448 020:993 JLINK_IsHalted()  returns FALSE (0001ms, 0654ms total)
T2448 021:096 JLINK_IsHalted()  returns FALSE (0000ms, 0653ms total)
T2448 021:198 JLINK_IsHalted()  returns FALSE (0001ms, 0654ms total)
T2448 021:300 JLINK_IsHalted()  returns FALSE (0000ms, 0653ms total)
T2448 021:403 JLINK_IsHalted()  returns FALSE (0000ms, 0653ms total)
T2120 021:505 JLINK_ReadMemEx(0x40002000, 0x0014 Bytes, ..., Flags = 0x02000004) -- CPU_ReadMem(20 bytes @ 0x40002000) - Data: 01 00 00 00 08 00 00 00 00 00 00 00 4C 09 00 00 ...  returns 0x14 (0002ms, 0655ms total)
T2120 021:507 JLINK_ReadMemEx(0x40002014, 0x0004 Bytes, ..., Flags = 0x02000004) -- CPU_ReadMem(4 bytes @ 0x40002014) - Data: 3F 03 00 00  returns 0x04 (0000ms, 0655ms total)
T2120 021:507 JLINK_ReadMemEx(0x40002020, 0x0004 Bytes, ..., Flags = 0x02000004) -- CPU_ReadMem(4 bytes @ 0x40002020) - Data: 01 01 80 D1  returns 0x04 (0002ms, 0657ms total)
T2120 021:509 JLINK_ReadMemEx(0x40002034, 0x0004 Bytes, ..., Flags = 0x02000004) -- CPU_ReadMem(4 bytes @ 0x40002034) - Data: 47 01 00 0B  returns 0x04 (0001ms, 0658ms total)
T2120 021:510 JLINK_ReadMemEx(0x40002038, 0x0004 Bytes, ..., Flags = 0x02000004) -- CPU_ReadMem(4 bytes @ 0x40002038) - Data: FF 07 00 00  returns 0x04 (0001ms, 0659ms total)
T2120 021:511 JLINK_ReadMemEx(0x40000C00, 0x0010 Bytes, ..., Flags = 0x02000004) -- CPU_ReadMem(16 bytes @ 0x40000C00) - Data: F3 FF 00 00 F6 FF 00 00 F6 FF F3 FF 03 00 00 00  returns 0x10 (0001ms, 0660ms total)
T2120 021:512 JLINK_ReadMemEx(0x40000C10, 0x0004 Bytes, ..., Flags = 0x02000004) -- CPU_ReadMem(4 bytes @ 0x40000C10) - Data: 01 00 00 00  returns 0x04 (0001ms, 0661ms total)
T2120 021:513 JLINK_ReadMemEx(0x40000000, 0x0014 Bytes, ..., Flags = 0x02000004) -- CPU_ReadMem(20 bytes @ 0x40000000) - Data: 00 00 00 00 D1 00 00 00 00 00 00 00 00 00 00 00 ...  returns 0x14 (0001ms, 0662ms total)
T2120 021:514 JLINK_ReadMemEx(0x40000014, 0x0004 Bytes, ..., Flags = 0x02000004) -- CPU_ReadMem(4 bytes @ 0x40000014) - Data: 07 00 00 00  returns 0x04 (0002ms, 0664ms total)
T2448 021:516 JLINK_IsHalted()  returns FALSE (0001ms, 0665ms total)
T2448 021:618 JLINK_IsHalted()  returns FALSE (0000ms, 0664ms total)
T2448 021:720 JLINK_IsHalted()  returns FALSE (0000ms, 0664ms total)
T2448 021:822 JLINK_IsHalted()  returns FALSE (0000ms, 0664ms total)
T2448 021:924 JLINK_IsHalted()  returns FALSE (0000ms, 0664ms total)
T2120 022:027 JLINK_ReadMemEx(0x40002000, 0x0014 Bytes, ..., Flags = 0x02000004) -- CPU_ReadMem(20 bytes @ 0x40002000) - Data: 01 00 00 00 08 00 00 00 00 00 00 00 4C 09 00 00 ...  returns 0x14 (0001ms, 0665ms total)
T2120 022:028 JLINK_ReadMemEx(0x40002014, 0x0004 Bytes, ..., Flags = 0x02000004) -- CPU_ReadMem(4 bytes @ 0x40002014) - Data: 3F 03 00 00  returns 0x04 (0000ms, 0665ms total)
T2120 022:028 JLINK_ReadMemEx(0x40002020, 0x0004 Bytes, ..., Flags = 0x02000004) -- CPU_ReadMem(4 bytes @ 0x40002020) - Data: 01 01 80 D1  returns 0x04 (0002ms, 0667ms total)
T2120 022:030 JLINK_ReadMemEx(0x40002034, 0x0004 Bytes, ..., Flags = 0x02000004) -- CPU_ReadMem(4 bytes @ 0x40002034) - Data: 47 01 00 0B  returns 0x04 (0002ms, 0669ms total)
T2120 022:032 JLINK_ReadMemEx(0x40002038, 0x0004 Bytes, ..., Flags = 0x02000004) -- CPU_ReadMem(4 bytes @ 0x40002038) - Data: FF 07 00 00  returns 0x04 (0000ms, 0669ms total)
T2120 022:032 JLINK_ReadMemEx(0x40000C00, 0x0010 Bytes, ..., Flags = 0x02000004) -- CPU_ReadMem(16 bytes @ 0x40000C00) - Data: F3 FF 00 00 FC FF 00 00 FC FF F3 FF 03 00 00 00  returns 0x10 (0002ms, 0671ms total)
T2120 022:034 JLINK_ReadMemEx(0x40000C10, 0x0004 Bytes, ..., Flags = 0x02000004) -- CPU_ReadMem(4 bytes @ 0x40000C10) - Data: 01 00 00 00  returns 0x04 (0001ms, 0672ms total)
T2120 022:035 JLINK_ReadMemEx(0x40000000, 0x0014 Bytes, ..., Flags = 0x02000004) -- CPU_ReadMem(20 bytes @ 0x40000000) - Data: 00 00 00 00 D1 00 00 00 00 00 00 00 00 00 00 00 ...  returns 0x14 (0002ms, 0674ms total)
T2120 022:037 JLINK_ReadMemEx(0x40000014, 0x0004 Bytes, ..., Flags = 0x02000004) -- CPU_ReadMem(4 bytes @ 0x40000014) - Data: 07 00 00 00  returns 0x04 (0001ms, 0675ms total)
T2448 022:038 JLINK_IsHalted()  returns FALSE (0002ms, 0677ms total)
T2448 022:141 JLINK_IsHalted()  returns FALSE (0000ms, 0675ms total)
T2448 022:243 JLINK_IsHalted()  returns FALSE (0001ms, 0676ms total)
T2448 022:346 JLINK_IsHalted()  returns FALSE (0002ms, 0677ms total)
T2448 022:450 JLINK_IsHalted()  returns FALSE (0000ms, 0675ms total)
T2120 022:552 JLINK_ReadMemEx(0x40002000, 0x0014 Bytes, ..., Flags = 0x02000004) -- CPU_ReadMem(20 bytes @ 0x40002000) - Data: 01 00 00 00 08 00 00 00 00 00 00 00 4C 09 00 00 ...  returns 0x14 (0001ms, 0676ms total)
T2120 022:553 JLINK_ReadMemEx(0x40002014, 0x0004 Bytes, ..., Flags = 0x02000004) -- CPU_ReadMem(4 bytes @ 0x40002014) - Data: 3F 03 00 00  returns 0x04 (0001ms, 0677ms total)
T2120 022:554 JLINK_ReadMemEx(0x40002020, 0x0004 Bytes, ..., Flags = 0x02000004) -- CPU_ReadMem(4 bytes @ 0x40002020) - Data: 01 01 80 D1  returns 0x04 (0001ms, 0678ms total)
T2120 022:555 JLINK_ReadMemEx(0x40002034, 0x0004 Bytes, ..., Flags = 0x02000004) -- CPU_ReadMem(4 bytes @ 0x40002034) - Data: 47 01 00 0B  returns 0x04 (0001ms, 0679ms total)
T2120 022:556 JLINK_ReadMemEx(0x40002038, 0x0004 Bytes, ..., Flags = 0x02000004) -- CPU_ReadMem(4 bytes @ 0x40002038) - Data: FF 07 00 00  returns 0x04 (0001ms, 0680ms total)
T2120 022:557 JLINK_ReadMemEx(0x40000C00, 0x0010 Bytes, ..., Flags = 0x02000004) -- CPU_ReadMem(16 bytes @ 0x40000C00) - Data: F3 FF 00 00 FB FF 00 00 F8 FF F3 FF 03 00 00 00  returns 0x10 (0001ms, 0681ms total)
T2120 022:558 JLINK_ReadMemEx(0x40000C10, 0x0004 Bytes, ..., Flags = 0x02000004) -- CPU_ReadMem(4 bytes @ 0x40000C10) - Data: 01 00 00 00  returns 0x04 (0001ms, 0682ms total)
T2120 022:559 JLINK_ReadMemEx(0x40000000, 0x0014 Bytes, ..., Flags = 0x02000004) -- CPU_ReadMem(20 bytes @ 0x40000000) - Data: 00 00 00 00 D1 00 00 00 00 00 00 00 00 00 00 00 ...  returns 0x14 (0001ms, 0683ms total)
T2120 022:560 JLINK_ReadMemEx(0x40000014, 0x0004 Bytes, ..., Flags = 0x02000004) -- CPU_ReadMem(4 bytes @ 0x40000014) - Data: 07 00 00 00  returns 0x04 (0000ms, 0683ms total)
T2448 022:562 JLINK_IsHalted()  returns FALSE (0000ms, 0683ms total)
T2448 022:664 JLINK_IsHalted()  returns FALSE (0000ms, 0683ms total)
T2448 022:766 JLINK_IsHalted()  returns FALSE (0001ms, 0684ms total)
T2448 022:869 JLINK_IsHalted()  returns FALSE (0002ms, 0685ms total)
T2448 022:973 JLINK_IsHalted()  returns FALSE (0001ms, 0684ms total)
T2120 023:075 JLINK_ReadMemEx(0x40002000, 0x0014 Bytes, ..., Flags = 0x02000004) -- CPU_ReadMem(20 bytes @ 0x40002000) - Data: 01 00 00 00 08 00 00 00 00 00 00 00 4C 09 00 00 ...  returns 0x14 (0002ms, 0685ms total)
T2120 023:077 JLINK_ReadMemEx(0x40002014, 0x0004 Bytes, ..., Flags = 0x02000004) -- CPU_ReadMem(4 bytes @ 0x40002014) - Data: 3F 03 00 00  returns 0x04 (0001ms, 0686ms total)
T2120 023:078 JLINK_ReadMemEx(0x40002020, 0x0004 Bytes, ..., Flags = 0x02000004) -- CPU_ReadMem(4 bytes @ 0x40002020) - Data: 01 01 80 D1  returns 0x04 (0000ms, 0686ms total)
T2120 023:078 JLINK_ReadMemEx(0x40002034, 0x0004 Bytes, ..., Flags = 0x02000004) -- CPU_ReadMem(4 bytes @ 0x40002034) - Data: 47 01 00 0B  returns 0x04 (0002ms, 0688ms total)
T2120 023:080 JLINK_ReadMemEx(0x40002038, 0x0004 Bytes, ..., Flags = 0x02000004) -- CPU_ReadMem(4 bytes @ 0x40002038) - Data: FF 07 00 00  returns 0x04 (0001ms, 0689ms total)
T2120 023:081 JLINK_ReadMemEx(0x40000C00, 0x0010 Bytes, ..., Flags = 0x02000004) -- CPU_ReadMem(16 bytes @ 0x40000C00) - Data: F3 FF 00 00 FE FF 00 00 FE FF F3 FF 03 00 00 00  returns 0x10 (0001ms, 0690ms total)
T2120 023:082 JLINK_ReadMemEx(0x40000C10, 0x0004 Bytes, ..., Flags = 0x02000004) -- CPU_ReadMem(4 bytes @ 0x40000C10) - Data: 01 00 00 00  returns 0x04 (0000ms, 0690ms total)
T2120 023:083 JLINK_ReadMemEx(0x40000000, 0x0014 Bytes, ..., Flags = 0x02000004) -- CPU_ReadMem(20 bytes @ 0x40000000) - Data: 00 00 00 00 D1 00 00 00 00 00 00 00 00 00 00 00 ...  returns 0x14 (0002ms, 0692ms total)
T2120 023:085 JLINK_ReadMemEx(0x40000014, 0x0004 Bytes, ..., Flags = 0x02000004) -- CPU_ReadMem(4 bytes @ 0x40000014) - Data: 07 00 00 00  returns 0x04 (0001ms, 0693ms total)
T2448 023:086 JLINK_IsHalted()  returns FALSE (0000ms, 0693ms total)
T2448 023:188 JLINK_IsHalted()  returns FALSE (0000ms, 0693ms total)
T2448 023:293 JLINK_IsHalted()  returns FALSE (0000ms, 0693ms total)
T2448 023:395 JLINK_IsHalted()  returns FALSE (0001ms, 0694ms total)
T2448 023:497 JLINK_IsHalted()  returns FALSE (0002ms, 0695ms total)
T2120 023:601 JLINK_ReadMemEx(0x40002000, 0x0014 Bytes, ..., Flags = 0x02000004) -- CPU_ReadMem(20 bytes @ 0x40002000) - Data: 01 00 00 00 08 00 00 00 00 00 00 00 4C 09 00 00 ...  returns 0x14 (0001ms, 0694ms total)
T2120 023:602 JLINK_ReadMemEx(0x40002014, 0x0004 Bytes, ..., Flags = 0x02000004) -- CPU_ReadMem(4 bytes @ 0x40002014) - Data: 3F 03 00 00  returns 0x04 (0000ms, 0694ms total)
T2120 023:602 JLINK_ReadMemEx(0x40002020, 0x0004 Bytes, ..., Flags = 0x02000004) -- CPU_ReadMem(4 bytes @ 0x40002020) - Data: 01 01 80 D1  returns 0x04 (0002ms, 0696ms total)
T2120 023:604 JLINK_ReadMemEx(0x40002034, 0x0004 Bytes, ..., Flags = 0x02000004) -- CPU_ReadMem(4 bytes @ 0x40002034) - Data: 47 01 00 0B  returns 0x04 (0000ms, 0696ms total)
T2120 023:604 JLINK_ReadMemEx(0x40002038, 0x0004 Bytes, ..., Flags = 0x02000004) -- CPU_ReadMem(4 bytes @ 0x40002038) - Data: FF 07 00 00  returns 0x04 (0001ms, 0697ms total)
T2120 023:605 JLINK_ReadMemEx(0x40000C00, 0x0010 Bytes, ..., Flags = 0x02000004) -- CPU_ReadMem(16 bytes @ 0x40000C00) - Data: F3 FF 00 00 FE FF 00 00 FB FF F3 FF 03 00 00 00  returns 0x10 (0002ms, 0699ms total)
T2120 023:607 JLINK_ReadMemEx(0x40000C10, 0x0004 Bytes, ..., Flags = 0x02000004) -- CPU_ReadMem(4 bytes @ 0x40000C10) - Data: 01 00 00 00  returns 0x04 (0001ms, 0700ms total)
T2120 023:608 JLINK_ReadMemEx(0x40000000, 0x0014 Bytes, ..., Flags = 0x02000004) -- CPU_ReadMem(20 bytes @ 0x40000000) - Data: 00 00 00 00 D1 00 00 00 00 00 00 00 00 00 00 00 ...  returns 0x14 (0000ms, 0700ms total)
T2120 023:608 JLINK_ReadMemEx(0x40000014, 0x0004 Bytes, ..., Flags = 0x02000004) -- CPU_ReadMem(4 bytes @ 0x40000014) - Data: 07 00 00 00  returns 0x04 (0002ms, 0702ms total)
T2448 023:610 JLINK_IsHalted()  returns FALSE (0000ms, 0702ms total)
T2448 023:713 JLINK_IsHalted()  returns FALSE (0000ms, 0702ms total)
T2448 023:815 JLINK_IsHalted()  returns FALSE (0001ms, 0703ms total)
T2448 023:918 JLINK_IsHalted()  returns FALSE (0000ms, 0702ms total)
T2448 024:021 JLINK_IsHalted()  returns FALSE (0000ms, 0702ms total)
T2120 024:127 JLINK_ReadMemEx(0x40002000, 0x0014 Bytes, ..., Flags = 0x02000004) -- CPU_ReadMem(20 bytes @ 0x40002000) - Data: 01 00 00 00 08 00 00 00 00 00 00 00 4C 09 00 00 ...  returns 0x14 (0000ms, 0702ms total)
T2120 024:127 JLINK_ReadMemEx(0x40002014, 0x0004 Bytes, ..., Flags = 0x02000004) -- CPU_ReadMem(4 bytes @ 0x40002014) - Data: 3F 03 00 00  returns 0x04 (0001ms, 0703ms total)
T2120 024:128 JLINK_ReadMemEx(0x40002020, 0x0004 Bytes, ..., Flags = 0x02000004) -- CPU_ReadMem(4 bytes @ 0x40002020) - Data: 01 01 80 D1  returns 0x04 (0001ms, 0704ms total)
T2120 024:129 JLINK_ReadMemEx(0x40002034, 0x0004 Bytes, ..., Flags = 0x02000004) -- CPU_ReadMem(4 bytes @ 0x40002034) - Data: 47 01 00 0B  returns 0x04 (0001ms, 0705ms total)
T2120 024:130 JLINK_ReadMemEx(0x40002038, 0x0004 Bytes, ..., Flags = 0x02000004) -- CPU_ReadMem(4 bytes @ 0x40002038) - Data: FF 07 00 00  returns 0x04 (0001ms, 0706ms total)
T2120 024:131 JLINK_ReadMemEx(0x40000C00, 0x0010 Bytes, ..., Flags = 0x02000004) -- CPU_ReadMem(16 bytes @ 0x40000C00) - Data: F3 FF 00 00 FC FF 00 00 FC FF F3 FF 03 00 00 00  returns 0x10 (0001ms, 0707ms total)
T2120 024:132 JLINK_ReadMemEx(0x40000C10, 0x0004 Bytes, ..., Flags = 0x02000004) -- CPU_ReadMem(4 bytes @ 0x40000C10) - Data: 01 00 00 00  returns 0x04 (0000ms, 0707ms total)
T2120 024:132 JLINK_ReadMemEx(0x40000000, 0x0014 Bytes, ..., Flags = 0x02000004) -- CPU_ReadMem(20 bytes @ 0x40000000) - Data: 00 00 00 00 D1 00 00 00 00 00 00 00 00 00 00 00 ...  returns 0x14 (0002ms, 0709ms total)
T2120 024:134 JLINK_ReadMemEx(0x40000014, 0x0004 Bytes, ..., Flags = 0x02000004) -- CPU_ReadMem(4 bytes @ 0x40000014) - Data: 07 00 00 00  returns 0x04 (0001ms, 0710ms total)
T2448 024:135 JLINK_IsHalted()  returns FALSE (0001ms, 0711ms total)
T2448 024:237 JLINK_IsHalted()  returns FALSE (0000ms, 0710ms total)
T2448 024:339 JLINK_IsHalted()  returns FALSE (0001ms, 0711ms total)
T2448 024:441 JLINK_IsHalted()  returns FALSE (0001ms, 0711ms total)
T2448 024:543 JLINK_IsHalted()  returns FALSE (0001ms, 0711ms total)
T2120 024:646 JLINK_ReadMemEx(0x40002000, 0x0014 Bytes, ..., Flags = 0x02000004) -- CPU_ReadMem(20 bytes @ 0x40002000) - Data: 01 00 00 00 08 00 00 00 00 00 00 00 4C 09 00 00 ...  returns 0x14 (0002ms, 0712ms total)
T2120 024:648 JLINK_ReadMemEx(0x40002014, 0x0004 Bytes, ..., Flags = 0x02000004) -- CPU_ReadMem(4 bytes @ 0x40002014) - Data: 3F 03 00 00  returns 0x04 (0001ms, 0713ms total)
T2120 024:649 JLINK_ReadMemEx(0x40002020, 0x0004 Bytes, ..., Flags = 0x02000004) -- CPU_ReadMem(4 bytes @ 0x40002020) - Data: 01 01 80 D1  returns 0x04 (0001ms, 0714ms total)
T2120 024:650 JLINK_ReadMemEx(0x40002034, 0x0004 Bytes, ..., Flags = 0x02000004) -- CPU_ReadMem(4 bytes @ 0x40002034) - Data: 47 01 00 0B  returns 0x04 (0001ms, 0715ms total)
T2120 024:651 JLINK_ReadMemEx(0x40002038, 0x0004 Bytes, ..., Flags = 0x02000004) -- CPU_ReadMem(4 bytes @ 0x40002038) - Data: FF 07 00 00  returns 0x04 (0001ms, 0716ms total)
T2120 024:652 JLINK_ReadMemEx(0x40000C00, 0x0010 Bytes, ..., Flags = 0x02000004) -- CPU_ReadMem(16 bytes @ 0x40000C00) - Data: F3 FF 00 00 F6 FF 00 00 F3 FF F3 FF 03 00 00 00  returns 0x10 (0001ms, 0717ms total)
T2120 024:653 JLINK_ReadMemEx(0x40000C10, 0x0004 Bytes, ..., Flags = 0x02000004) -- CPU_ReadMem(4 bytes @ 0x40000C10) - Data: 01 00 00 00  returns 0x04 (0001ms, 0718ms total)
T2120 024:654 JLINK_ReadMemEx(0x40000000, 0x0014 Bytes, ..., Flags = 0x02000004) -- CPU_ReadMem(20 bytes @ 0x40000000) - Data: 00 00 00 00 D1 00 00 00 00 00 00 00 00 00 00 00 ...  returns 0x14 (0000ms, 0718ms total)
T2120 024:654 JLINK_ReadMemEx(0x40000014, 0x0004 Bytes, ..., Flags = 0x02000004) -- CPU_ReadMem(4 bytes @ 0x40000014) - Data: 07 00 00 00  returns 0x04 (0002ms, 0720ms total)
T2448 024:657 JLINK_IsHalted()  returns FALSE (0001ms, 0721ms total)
T2448 024:759 JLINK_IsHalted()  returns FALSE (0001ms, 0721ms total)
T2448 024:861 JLINK_IsHalted()  returns FALSE (0001ms, 0721ms total)
T2448 024:964 JLINK_IsHalted()  returns FALSE (0001ms, 0721ms total)
T2448 025:065 JLINK_IsHalted()  returns FALSE (0000ms, 0720ms total)
T2120 025:170 JLINK_ReadMemEx(0x40002000, 0x0014 Bytes, ..., Flags = 0x02000004) -- CPU_ReadMem(20 bytes @ 0x40002000) - Data: 01 00 00 00 08 00 00 00 00 00 00 00 4C 09 00 00 ...  returns 0x14 (0002ms, 0722ms total)
T2120 025:172 JLINK_ReadMemEx(0x40002014, 0x0004 Bytes, ..., Flags = 0x02000004) -- CPU_ReadMem(4 bytes @ 0x40002014) - Data: 3F 03 00 00  returns 0x04 (0004ms, 0726ms total)
T2120 025:176 JLINK_ReadMemEx(0x40002020, 0x0004 Bytes, ..., Flags = 0x02000004) -- CPU_ReadMem(4 bytes @ 0x40002020) - Data: 01 01 80 D1  returns 0x04 (0001ms, 0727ms total)
T2120 025:177 JLINK_ReadMemEx(0x40002034, 0x0004 Bytes, ..., Flags = 0x02000004) -- CPU_ReadMem(4 bytes @ 0x40002034) - Data: 47 01 00 0B  returns 0x04 (0003ms, 0730ms total)
T2120 025:180 JLINK_ReadMemEx(0x40002038, 0x0004 Bytes, ..., Flags = 0x02000004) -- CPU_ReadMem(4 bytes @ 0x40002038) - Data: FF 07 00 00  returns 0x04 (0003ms, 0733ms total)
T2120 025:183 JLINK_ReadMemEx(0x40000C00, 0x0010 Bytes, ..., Flags = 0x02000004) -- CPU_ReadMem(16 bytes @ 0x40000C00) - Data: F3 FF 00 00 FF FF 00 00 FC FF F3 FF 03 00 00 00  returns 0x10 (0001ms, 0734ms total)
T2120 025:184 JLINK_ReadMemEx(0x40000C10, 0x0004 Bytes, ..., Flags = 0x02000004) -- CPU_ReadMem(4 bytes @ 0x40000C10) - Data: 01 00 00 00  returns 0x04 (0002ms, 0736ms total)
T2120 025:186 JLINK_ReadMemEx(0x40000000, 0x0014 Bytes, ..., Flags = 0x02000004) -- CPU_ReadMem(20 bytes @ 0x40000000) - Data: 00 00 00 00 D1 00 00 00 00 00 00 00 00 00 00 00 ...  returns 0x14 (0001ms, 0737ms total)
T2120 025:187 JLINK_ReadMemEx(0x40000014, 0x0004 Bytes, ..., Flags = 0x02000004) -- CPU_ReadMem(4 bytes @ 0x40000014) - Data: 07 00 00 00  returns 0x04 (0001ms, 0738ms total)
T2448 025:188 JLINK_IsHalted()  returns FALSE (0001ms, 0739ms total)
T2448 025:290 JLINK_IsHalted()  returns FALSE (0001ms, 0739ms total)
T2448 025:393 JLINK_IsHalted()  returns FALSE (0000ms, 0738ms total)
T2448 025:495 JLINK_IsHalted()  returns FALSE (0001ms, 0739ms total)
T2448 025:598 JLINK_IsHalted()  returns FALSE (0001ms, 0739ms total)
T2120 025:699 JLINK_ReadMemEx(0x40002000, 0x0014 Bytes, ..., Flags = 0x02000004) -- CPU_ReadMem(20 bytes @ 0x40002000) - Data: 01 00 00 00 08 00 00 00 00 00 00 00 4C 09 00 00 ...  returns 0x14 (0001ms, 0739ms total)
T2120 025:700 JLINK_ReadMemEx(0x40002014, 0x0004 Bytes, ..., Flags = 0x02000004) -- CPU_ReadMem(4 bytes @ 0x40002014) - Data: 3F 03 00 00  returns 0x04 (0001ms, 0740ms total)
T2120 025:701 JLINK_ReadMemEx(0x40002020, 0x0004 Bytes, ..., Flags = 0x02000004) -- CPU_ReadMem(4 bytes @ 0x40002020) - Data: 01 01 80 D1  returns 0x04 (0001ms, 0741ms total)
T2120 025:702 JLINK_ReadMemEx(0x40002034, 0x0004 Bytes, ..., Flags = 0x02000004) -- CPU_ReadMem(4 bytes @ 0x40002034) - Data: 47 01 00 0B  returns 0x04 (0001ms, 0742ms total)
T2120 025:703 JLINK_ReadMemEx(0x40002038, 0x0004 Bytes, ..., Flags = 0x02000004) -- CPU_ReadMem(4 bytes @ 0x40002038) - Data: FF 07 00 00  returns 0x04 (0001ms, 0743ms total)
T2120 025:704 JLINK_ReadMemEx(0x40000C00, 0x0010 Bytes, ..., Flags = 0x02000004) -- CPU_ReadMem(16 bytes @ 0x40000C00) - Data: F3 FF 00 00 F3 FF 00 00 F3 FF F3 FF 03 00 00 00  returns 0x10 (0001ms, 0744ms total)
T2120 025:705 JLINK_ReadMemEx(0x40000C10, 0x0004 Bytes, ..., Flags = 0x02000004) -- CPU_ReadMem(4 bytes @ 0x40000C10) - Data: 01 00 00 00  returns 0x04 (0002ms, 0746ms total)
T2120 025:707 JLINK_ReadMemEx(0x40000000, 0x0014 Bytes, ..., Flags = 0x02000004) -- CPU_ReadMem(20 bytes @ 0x40000000) - Data: 00 00 00 00 D1 00 00 00 00 00 00 00 00 00 00 00 ...  returns 0x14 (0000ms, 0746ms total)
T2120 025:707 JLINK_ReadMemEx(0x40000014, 0x0004 Bytes, ..., Flags = 0x02000004) -- CPU_ReadMem(4 bytes @ 0x40000014) - Data: 07 00 00 00  returns 0x04 (0002ms, 0748ms total)
T2448 025:711 JLINK_IsHalted()  returns FALSE (0000ms, 0748ms total)
T2448 025:813 JLINK_Halt()  returns 0x00 (0002ms, 0750ms total)
T2448 025:815 JLINK_IsHalted()  returns TRUE (0000ms, 0750ms total)
T2448 025:815 JLINK_IsHalted()  returns TRUE (0000ms, 0750ms total)
T2448 025:815 JLINK_IsHalted()  returns TRUE (0000ms, 0750ms total)
T2448 025:815 JLINK_ReadReg(R15 (PC))  returns 0x00001756 (0000ms, 0750ms total)
T2448 025:815 JLINK_ReadReg(XPSR)  returns 0x41000000 (0000ms, 0750ms total)
T2448 025:815 JLINK_ReadMemU32(0xE000ED30, 0x0001 Items, ...) -- CPU_ReadMem(4 bytes @ 0xE000ED30) - Data: 01 00 00 00  returns 0x01 (0002ms, 0752ms total)
T2448 025:817 JLINK_ReadMemU32(0xE0001028, 0x0001 Items, ...) -- CPU_ReadMem(4 bytes @ 0xE0001028) - Data: 00 00 00 00  returns 0x01 (0000ms, 0752ms total)
T2448 025:817 JLINK_ReadMemU32(0xE0001038, 0x0001 Items, ...) -- CPU_ReadMem(4 bytes @ 0xE0001038) - Data: 00 00 00 00  returns 0x01 (0002ms, 0754ms total)
T2448 025:819 JLINK_ReadReg(R0)  returns 0x00000000 (0000ms, 0754ms total)
T2448 025:819 JLINK_ReadReg(R1)  returns 0x40000000 (0000ms, 0754ms total)
T2448 025:819 JLINK_ReadReg(R2)  returns 0x00000010 (0000ms, 0754ms total)
T2448 025:819 JLINK_ReadReg(R3)  returns 0x00000000 (0000ms, 0754ms total)
T2448 025:819 JLINK_ReadReg(R4)  returns 0x00001780 (0000ms, 0754ms total)
T2448 025:819 JLINK_ReadReg(R5)  returns 0x20000158 (0000ms, 0754ms total)
T2448 025:819 JLINK_ReadReg(R6)  returns 0x00000000 (0000ms, 0754ms total)
T2448 025:819 JLINK_ReadReg(R7)  returns 0x00000000 (0000ms, 0754ms total)
T2448 025:819 JLINK_ReadReg(R8)  returns 0x00000000 (0000ms, 0754ms total)
T2448 025:819 JLINK_ReadReg(R9)  returns 0x200001DC (0000ms, 0754ms total)
T2448 025:819 JLINK_ReadReg(R10)  returns 0x00001780 (0000ms, 0754ms total)
T2448 025:819 JLINK_ReadReg(R11)  returns 0x00001780 (0000ms, 0754ms total)
T2448 025:819 JLINK_ReadReg(R12)  returns 0x00000000 (0000ms, 0754ms total)
T2448 025:819 JLINK_ReadReg(R13 (SP))  returns 0x200003B8 (0000ms, 0754ms total)
T2448 025:819 JLINK_ReadReg(R14)  returns 0x0000103D (0000ms, 0754ms total)
T2448 025:819 JLINK_ReadReg(R15 (PC))  returns 0x00001756 (0000ms, 0754ms total)
T2448 025:819 JLINK_ReadReg(XPSR)  returns 0x41000000 (0000ms, 0754ms total)
T2448 025:819 JLINK_ReadReg(MSP)  returns 0x200003B8 (0000ms, 0754ms total)
T2448 025:819 JLINK_ReadReg(PSP)  returns 0x20001000 (0000ms, 0754ms total)
T2448 025:819 JLINK_ReadReg(CFBP)  returns 0x00000000 (0000ms, 0754ms total)
T2120 025:819 JLINK_ReadMemEx(0x40002000, 0x0014 Bytes, ..., Flags = 0x02000004) -- CPU_ReadMem(20 bytes @ 0x40002000) - Data: 01 00 00 00 08 00 00 00 00 00 00 00 4C 09 00 00 ...  returns 0x14 (0002ms, 0756ms total)
T2120 025:821 JLINK_ReadMemEx(0x40002014, 0x0004 Bytes, ..., Flags = 0x02000004) -- CPU_ReadMem(4 bytes @ 0x40002014) - Data: 3F 03 00 00  returns 0x04 (0001ms, 0757ms total)
T2120 025:822 JLINK_ReadMemEx(0x40002020, 0x0004 Bytes, ..., Flags = 0x02000004) -- CPU_ReadMem(4 bytes @ 0x40002020) - Data: 01 01 80 D1  returns 0x04 (0000ms, 0757ms total)
T2120 025:822 JLINK_ReadMemEx(0x40002034, 0x0004 Bytes, ..., Flags = 0x02000004) -- CPU_ReadMem(4 bytes @ 0x40002034) - Data: 47 01 00 0B  returns 0x04 (0002ms, 0759ms total)
T2120 025:824 JLINK_ReadMemEx(0x40002038, 0x0004 Bytes, ..., Flags = 0x02000004) -- CPU_ReadMem(4 bytes @ 0x40002038) - Data: FF 07 00 00  returns 0x04 (0000ms, 0759ms total)
T2120 025:830 JLINK_ReadMemEx(0x40000C00, 0x0010 Bytes, ..., Flags = 0x02000004) -- CPU_ReadMem(16 bytes @ 0x40000C00) - Data: F3 FF 00 00 FA FF 00 00 FA FF F3 FF 03 00 00 00  returns 0x10 (0000ms, 0759ms total)
T2120 025:830 JLINK_ReadMemEx(0x40000C10, 0x0004 Bytes, ..., Flags = 0x02000004) -- CPU_ReadMem(4 bytes @ 0x40000C10) - Data: 01 00 00 00  returns 0x04 (0001ms, 0760ms total)
T2120 025:831 JLINK_ReadMemEx(0x40000000, 0x0014 Bytes, ..., Flags = 0x02000004) -- CPU_ReadMem(20 bytes @ 0x40000000) - Data: 00 00 00 00 D1 00 00 00 00 00 00 00 00 00 00 00 ...  returns 0x14 (0001ms, 0761ms total)
T2120 025:832 JLINK_ReadMemEx(0x40000014, 0x0004 Bytes, ..., Flags = 0x02000004) -- CPU_ReadMem(4 bytes @ 0x40000014) - Data: 07 00 00 00  returns 0x04 (0001ms, 0762ms total)
T2120 025:834 JLINK_ReadMemEx(0x00001756, 0x0002 Bytes, ..., Flags = 0x02000000) -- CPU_ReadMem(64 bytes @ 0x00001740) -- Updating DA cache (64 bytes @ 0x00001740) -- Read from DA cache (2 bytes @ 0x00001756) - Data: FE E7  returns 0x02 (0001ms, 0763ms total)
T2120 025:835 JLINK_ReadMemEx(0x00001758, 0x003C Bytes, ..., Flags = 0x02000000) -- CPU_ReadMem(64 bytes @ 0x00001780) -- Updating DA cache (64 bytes @ 0x00001780) -- Read from DA cache (60 bytes @ 0x00001758) - Data: 00 80 00 00 00 96 00 00 80 17 00 00 00 00 00 20 ...  returns 0x3C (0002ms, 0765ms total)
T2120 025:837 JLINK_ReadMemEx(0x00001758, 0x0002 Bytes, ..., Flags = 0x02000000) -- Read from DA cache (2 bytes @ 0x00001758) - Data: 00 80  returns 0x02 (0000ms, 0765ms total)
T2120 025:837 JLINK_ReadMemEx(0x00001758, 0x003C Bytes, ..., Flags = 0x02000000) -- Read from DA cache (60 bytes @ 0x00001758) - Data: 00 80 00 00 00 96 00 00 80 17 00 00 00 00 00 20 ...  returns 0x3C (0000ms, 0765ms total)
T2120 025:837 JLINK_ReadMemEx(0x00001758, 0x0002 Bytes, ..., Flags = 0x02000000) -- Read from DA cache (2 bytes @ 0x00001758) - Data: 00 80  returns 0x02 (0000ms, 0765ms total)
T2120 025:837 JLINK_ReadMemEx(0x0000175A, 0x0002 Bytes, ..., Flags = 0x02000000) -- Read from DA cache (2 bytes @ 0x0000175A) - Data: 00 00  returns 0x02 (0000ms, 0765ms total)
T2120 025:837 JLINK_ReadMemEx(0x0000175A, 0x0002 Bytes, ..., Flags = 0x02000000) -- Read from DA cache (2 bytes @ 0x0000175A) - Data: 00 00  returns 0x02 (0000ms, 0765ms total)
T2120 025:837 JLINK_ReadMemEx(0x0000175C, 0x003C Bytes, ..., Flags = 0x02000000) -- Read from DA cache (60 bytes @ 0x0000175C) - Data: 00 96 00 00 80 17 00 00 00 00 00 20 88 00 00 00 ...  returns 0x3C (0000ms, 0765ms total)
